T5038 000:909.722   SEGGER J-Link V6.70e Log File
T5038 000:909.851   DLL Compiled: Apr 17 2020 17:55:05
T5038 000:909.860   Logging started @ 2021-07-15 11:09
T5038 000:909.873 JLINK_SetWarnOutHandler(...)
T5038 000:909.888 - 0.019ms
T5038 000:909.903 JLINK_OpenEx(...)
T5038 000:912.920   Firmware: J-Link V9 compiled Dec 13 2019 11:14:50
T5038 000:913.098   Decompressing FW timestamp took 131 us
T5038 000:923.582   Hardware: V9.70
T5038 000:923.612   S/N: 20781318
T5038 000:923.626   OEM: SEGGER
T5038 000:923.640   Feature(s): GDB, RDI, FlashBP, FlashDL, JFlash, RDDI
T5038 000:926.932   TELNET listener socket opened on port 19021
T5038 000:927.070   WEBSRV Starting webserver
T5038 000:927.312   WEBSRV Webserver running on local port 19080
T5038 000:927.337 - 17.440ms returns "O.K."
T5038 000:927.370 JLINK_GetEmuCaps()
T5038 000:927.397 - 0.034ms returns 0xB9FF7BBF
T5038 000:927.417 JLINK_TIF_GetAvailable(...)
T5038 000:928.046 - 0.655ms
T5038 000:928.087 JLINK_SetErrorOutHandler(...)
T5038 000:928.097 - 0.015ms
T5038 000:928.138 JLINK_ExecCommand("ProjectFile = "E:\project\product\GD32\E230 - boot(1)\E230 - boot\MDK-ARM\JLinkSettings.ini"", ...). 
T5038 000:935.307   Device "CORTEX-M23" selected.
T5038 000:935.622 - 7.510ms returns 0x00
T5038 000:935.654 JLINK_ExecCommand("Device = GD32E230G8", ...). 
T5038 000:935.773   Device "CORTEX-M23" selected.
T5038 000:936.015 - 0.353ms returns 0x00
T5038 000:936.033 JLINK_ExecCommand("DisableConnectionTimeout", ...). 
T5038 000:936.058 - 0.008ms returns 0x01
T5038 000:936.071 JLINK_GetHardwareVersion()
T5038 000:936.080 - 0.013ms returns 0x17AE8
T5038 000:936.092 JLINK_GetDLLVersion()  returns 67005
T5038 000:936.109 JLINK_GetFirmwareString(...)
T5038 000:936.118 - 0.013ms
T5038 000:936.143 JLINK_GetDLLVersion()  returns 67005
T5038 000:936.154 JLINK_GetCompileDateTime()
T5038 000:936.163 - 0.012ms
T5038 000:936.178 JLINK_GetFirmwareString(...)
T5038 000:936.187 - 0.013ms
T5038 000:936.201 JLINK_GetHardwareVersion()
T5038 000:936.210 - 0.013ms returns 0x17AE8
T5038 000:936.238 JLINK_TIF_Select(JLINKARM_TIF_SWD)
T5038 000:939.570 - 3.343ms returns 0x00
T5038 000:939.601 JLINK_SetSpeed(5000)
T5038 000:940.223 - 0.631ms
T5038 000:940.240 JLINK_GetId()
T5038 000:942.711   Found SW-DP with ID 0x0BF11477
T5038 000:948.032   Old FW that does not support reading DPIDR via DAP jobs
T5038 000:949.805   Unknown DP version. Assuming DPv0
T5038 000:949.833   Scanning AP map to find all available APs
T5038 000:951.073   AP[1]: Stopped AP scan as end of AP map has been reached
T5038 000:951.099   AP[0]: AHB-AP (IDR: 0x04770025)
T5038 000:951.119   Iterating through AP map to find AHB-AP to use
T5038 000:952.849   AP[0]: Core found
T5038 000:952.871   AP[0]: AHB-AP ROM base: 0xE00FF000
T5038 000:953.544   CPUID register: 0x411CD200. Implementer code: 0x41 (ARM)
T5038 000:953.566   Found Cortex-M23 r1p0, Little endian.
T5038 001:056.356    -- Max. mem block: 0x00010BD0
T5038 001:058.024   CPU_ReadMem(4 bytes @ 0xE000EDF0)
T5038 001:058.868   CPU_WriteMem(4 bytes @ 0xE000EDF0)
T5038 001:059.567   CPU_ReadMem(4 bytes @ 0xE0002000)
T5038 001:060.338   FPUnit: 4 code (BP) slots and 0 literal slots
T5038 001:060.356   CPU_ReadMem(4 bytes @ 0xE000EDFC)
T5038 001:061.026   CPU_WriteMem(4 bytes @ 0xE000EDFC)
T5038 001:061.861   CPU_ReadMem(4 bytes @ 0xE0001000)
T5038 001:062.569   CPU_WriteMem(4 bytes @ 0xE0001000)
T5038 001:063.384   CPU_ReadMem(4 bytes @ 0xE000ED88)
T5038 001:064.058   CPU_WriteMem(4 bytes @ 0xE000ED88)
T5038 001:064.859   CPU_ReadMem(4 bytes @ 0xE000ED88)
T5038 001:065.660   CPU_WriteMem(4 bytes @ 0xE000ED88)
T5038 001:066.424   CPU_ReadMem(4 bytes @ 0xE000EFB8)
T5038 001:067.138   Security extension: not implemented
T5038 001:067.161   CoreSight components:
T5038 001:067.181   ROMTbl[0] @ E00FF000
T5038 001:067.196   CPU_ReadMem(64 bytes @ 0xE00FF000)
T5038 001:068.127   CPU_ReadMem(32 bytes @ 0xE000EFE0)
T5038 001:068.757   CPU_ReadMem(4 bytes @ 0xE000EFBC)
T5038 001:069.442   CPU_ReadMem(4 bytes @ 0xE000EFCC)
T5038 001:070.264   ROMTbl[0][0]: E000E000, CID: B105900D, PID: 000BBD20 Cortex-M23
T5038 001:070.282   CPU_ReadMem(32 bytes @ 0xE0001FE0)
T5038 001:071.050   CPU_ReadMem(4 bytes @ 0xE0001FBC)
T5038 001:071.803   CPU_ReadMem(4 bytes @ 0xE0001FCC)
T5038 001:072.546   ROMTbl[0][1]: E0001000, CID: B105900D, PID: 000BBD20 DWT
T5038 001:072.566   CPU_ReadMem(32 bytes @ 0xE0002FE0)
T5038 001:073.463   CPU_ReadMem(4 bytes @ 0xE0002FBC)
T5038 001:074.538   CPU_ReadMem(4 bytes @ 0xE0002FCC)
T5038 001:075.324   ROMTbl[0][2]: E0002000, CID: B105900D, PID: 000BBD20 FPB
T5038 001:076.057 - 135.831ms   returns 0x0BF11477
T5038 001:076.093 JLINK_GetDLLVersion()  returns 67005
T5038 001:076.114 JLINK_CORE_GetFound()
T5038 001:076.123 - 0.014ms returns 0x60100FF
T5038 001:076.136 JLINK_GetDebugInfo(0x100 = JLINKARM_ROM_TABLE_ADDR_INDEX)
T5038 001:076.150   Value=0xE00FF000
T5038 001:076.163 - 0.031ms returns 0x00
T5038 001:076.185 JLINK_GetDebugInfo(0x100 = JLINKARM_ROM_TABLE_ADDR_INDEX)
T5038 001:076.194   Value=0xE00FF000
T5038 001:076.207 - 0.027ms returns 0x00
T5038 001:076.219 JLINK_GetDebugInfo(0x101 = JLINKARM_DEBUG_INFO_ETM_ADDR_INDEX)
T5038 001:076.228   Value=0x00000000
T5038 001:076.240 - 0.026ms returns 0x00
T5038 001:076.327   JLINK_ReadMemEx(0xE0041FF0, 0x0010 Bytes, ..., Flags = 0x02000004)
T5038 001:076.358   CPU_ReadMem(16 bytes @ 0xE0041FF0)
T5038 001:077.733   Data:  AA AA AA AA AA AA AA AA AA AA AA AA AA AA AA AA
T5038 001:077.752 - 1.433ms returns 0xFFFFFFFF
T5038 001:077.764 JLINK_GetDebugInfo(0x102 = JLINKARM_DEBUG_INFO_MTB_ADDR_INDEX)
T5038 001:077.774   Value=0x00000000
T5038 001:077.787 - 0.027ms returns 0x00
T5038 001:077.797 JLINK_GetDebugInfo(0x103 = JLINKARM_DEBUG_INFO_TPIU_ADDR_INDEX)
T5038 001:077.807   Value=0x00000000
T5038 001:077.819 - 0.026ms returns 0x00
T5038 001:077.830   JLINK_ReadMemEx(0xE0040FF0, 0x0010 Bytes, ..., Flags = 0x02000004)
T5038 001:077.847   CPU_ReadMem(16 bytes @ 0xE0040FF0)
T5038 001:078.961   Data:  AA AA AA AA AA AA AA AA AA AA AA AA AA AA AA AA
T5038 001:078.982 - 1.157ms returns 0xFFFFFFFF
T5038 001:078.995 JLINK_GetDebugInfo(0x104 = JLINKARM_DEBUG_INFO_ITM_ADDR_INDEX)
T5038 001:079.005   Value=0xE0000000
T5038 001:079.019 - 0.028ms returns 0x00
T5038 001:079.029 JLINK_GetDebugInfo(0x105 = JLINKARM_DEBUG_INFO_DWT_ADDR_INDEX)
T5038 001:079.039   Value=0xE0001000
T5038 001:079.052 - 0.026ms returns 0x00
T5038 001:079.062 JLINK_GetDebugInfo(0x106 = JLINKARM_DEBUG_INFO_FPB_ADDR_INDEX)
T5038 001:079.072   Value=0xE0002000
T5038 001:079.085 - 0.026ms returns 0x00
T5038 001:079.095 JLINK_GetDebugInfo(0x107 = JLINKARM_DEBUG_INFO_NVIC_ADDR_INDEX)
T5038 001:079.104   Value=0xE000E000
T5038 001:079.117 - 0.026ms returns 0x00
T5038 001:079.128 JLINK_GetDebugInfo(0x10C = JLINKARM_DEBUG_INFO_DBG_ADDR_INDEX)
T5038 001:079.137   Value=0xE000EDF0
T5038 001:079.150 - 0.026ms returns 0x00
T5038 001:079.160 JLINK_GetDebugInfo(0x01 = Unknown)
T5038 001:079.173   Value=0x00000000
T5038 001:079.186 - 0.030ms returns 0x00
T5038 001:079.199 JLINK_ReadMemU32(0xE000ED00, 0x0001 Items, ...)
T5038 001:079.212   CPU_ReadMem(4 bytes @ 0xE000ED00)
T5038 001:080.417   Data:  00 D2 1C 41
T5038 001:080.440    - CPUID
T5038 001:080.453 - 1.259ms returns 1
T5038 001:080.466 JLINK_GetDebugInfo(0x10F = JLINKARM_DEBUG_INFO_HAS_CORTEX_M_SECURITY_EXT_INDEX)
T5038 001:080.475   Value=0x00000000
T5038 001:080.488 - 0.026ms returns 0x00
T5038 001:080.501 JLINK_SetResetType(JLINKARM_CM3_RESET_TYPE_NORMAL)
T5038 001:080.510 - 0.013ms returns JLINKARM_CM3_RESET_TYPE_NORMAL
T5038 001:080.521 JLINK_Reset()
T5038 001:080.542   CPU is running
T5038 001:080.556   CPU_WriteMem(4 bytes @ 0xE000EDF0)
T5038 001:081.479   CPU_ReadMem(4 bytes @ 0xE000EE08)
T5038 001:082.217   CPU is running
T5038 001:082.238   CPU_WriteMem(4 bytes @ 0xE000EE08)
T5038 001:082.895   CPU is running
T5038 001:082.915   CPU_WriteMem(4 bytes @ 0xE000EDFC)
T5038 001:083.737   Reset: Halt core after reset via DEMCR.VC_CORERESET.
T5038 001:085.326   Reset: Reset device via AIRCR.SYSRESETREQ.
T5038 001:085.350   CPU is running
T5038 001:085.365   CPU_WriteMem(4 bytes @ 0xE000ED0C)
T5038 001:141.010   CPU_ReadMem(4 bytes @ 0xE000EDF0)
T5038 001:142.663   CPU_ReadMem(4 bytes @ 0xE000EDF0)
T5038 001:143.509   CPU is running
T5038 001:143.530   CPU_WriteMem(4 bytes @ 0xE000EDF0)
T5038 001:144.284   CPU is running
T5038 001:144.305   CPU_WriteMem(4 bytes @ 0xE000EDFC)
T5038 001:151.472   CPU_ReadMem(4 bytes @ 0xE000EDF0)
T5038 001:155.540   CPU_ReadMem(4 bytes @ 0xE000EE08)
T5038 001:156.419   CPU_WriteMem(4 bytes @ 0xE0002000)
T5038 001:157.174   CPU_ReadMem(4 bytes @ 0xE000EDFC)
T5038 001:157.985   CPU_ReadMem(4 bytes @ 0xE0001000)
T5038 001:158.722   CPU_WriteMem(4 bytes @ 0xE0001000)
T5038 001:159.440   CPU_ReadMem(4 bytes @ 0xE000EE08)
T5038 001:160.169 - 79.656ms
T5038 001:160.249 JLINK_ReadReg(R15 (PC))
T5038 001:160.266   CPU_ReadMem(4 bytes @ 0xE000EE08)
T5038 001:160.973 - 0.733ms returns 0x080000E0
T5038 001:160.990 JLINK_ReadReg(XPSR)
T5038 001:161.001 - 0.016ms returns 0x01000000
T5038 001:161.013 JLINK_Halt()
T5038 001:161.022 - 0.013ms returns 0x00
T5038 001:161.033 JLINK_ReadMemU32(0xE000EDF0, 0x0001 Items, ...)
T5038 001:161.045   CPU_ReadMem(4 bytes @ 0xE000EDF0)
T5038 001:161.682   Data:  03 00 03 00
T5038 001:161.700    - DHCSR
T5038 001:161.713 - 0.684ms returns 1
T5038 001:161.725 JLINK_WriteU32(0xE000EDF0, 0xA05F0003)
T5038 001:161.735    - DHCSR
T5038 001:161.753   CPU_WriteMem(4 bytes @ 0xE000EDF0)
T5038 001:162.482 - 0.765ms returns 0
T5038 001:162.498 JLINK_WriteU32(0xE000EDFC, 0x01000000)
T5038 001:162.508    - DEMCR
T5038 001:162.526   CPU_WriteMem(4 bytes @ 0xE000EDFC)
T5038 001:163.210 - 0.719ms returns 0
T5038 001:163.256 JLINK_GetHWStatus(...)
T5038 001:163.898 - 0.650ms returns 0x00
T5038 001:163.932 JLINK_GetNumBPUnits(Type = 0xFFFFFF00)
T5038 001:163.942 - 0.015ms returns 0x04
T5038 001:163.953 JLINK_GetNumBPUnits(Type = 0xF0)
T5038 001:163.962 - 0.013ms returns 0x2000
T5038 001:163.973 JLINK_GetNumWPUnits()
T5038 001:163.982 - 0.013ms returns 0x02
T5038 001:164.002 JLINK_GetSpeed()
T5038 001:164.012 - 0.013ms returns 0xFA0
T5038 001:164.029 JLINK_ReadMemU32(0xE000E004, 0x0001 Items, ...)
T5038 001:164.041   CPU_ReadMem(4 bytes @ 0xE000E004)
T5038 001:164.715   Data:  01 00 00 00
T5038 001:164.732 - 0.708ms returns 1
T5038 001:164.744 JLINK_ReadMemU32(0xE000E004, 0x0001 Items, ...)
T5038 001:164.757   CPU_ReadMem(4 bytes @ 0xE000E004)
T5038 001:165.499   Data:  01 00 00 00
T5038 001:165.517 - 0.777ms returns 1
T5038 001:165.533 JLINK_ReadReg(R15 (PC))
T5038 001:165.545 - 0.017ms returns 0x080000E0
T5038 001:165.556 JLINK_ReadReg(XPSR)
T5038 001:165.566 - 0.014ms returns 0x01000000
T5038 001:236.798 JLINK_SetResetType(JLINKARM_CM3_RESET_TYPE_NORMAL)
T5038 001:236.828 - 0.034ms returns JLINKARM_CM3_RESET_TYPE_NORMAL
T5038 001:236.839 JLINK_Reset()
T5038 001:236.857   CPU_WriteMem(4 bytes @ 0xE000EDF0)
T5038 001:238.752   CPU_ReadMem(4 bytes @ 0xE000EE08)
T5038 001:240.034   CPU_WriteMem(4 bytes @ 0xE000EE08)
T5038 001:241.510   CPU_WriteMem(4 bytes @ 0xE000EDFC)
T5038 001:242.776   Reset: Halt core after reset via DEMCR.VC_CORERESET.
T5038 001:244.231   Reset: Reset device via AIRCR.SYSRESETREQ.
T5038 001:244.255   CPU_WriteMem(4 bytes @ 0xE000ED0C)
T5038 001:299.212   CPU_ReadMem(4 bytes @ 0xE000EDF0)
T5038 001:300.364   CPU_ReadMem(4 bytes @ 0xE000EDF0)
T5038 001:301.334   CPU_WriteMem(4 bytes @ 0xE000EDF0)
T5038 001:302.437   CPU_WriteMem(4 bytes @ 0xE000EDFC)
T5038 001:308.904   CPU_ReadMem(4 bytes @ 0xE000EDF0)
T5038 001:312.773   CPU_ReadMem(4 bytes @ 0xE000EE08)
T5038 001:313.903   CPU_WriteMem(4 bytes @ 0xE0002000)
T5038 001:314.602   CPU_ReadMem(4 bytes @ 0xE000EDFC)
T5038 001:315.381   CPU_ReadMem(4 bytes @ 0xE0001000)
T5038 001:316.219   CPU_WriteMem(4 bytes @ 0xE0001000)
T5038 001:316.995   CPU_ReadMem(4 bytes @ 0xE000EE08)
T5038 001:317.706 - 80.876ms
T5038 001:317.777 JLINK_ReadReg(R15 (PC))
T5038 001:317.794   CPU_ReadMem(4 bytes @ 0xE000EE08)
T5038 001:318.383 - 0.615ms returns 0x080000E0
T5038 001:318.403 JLINK_ReadReg(XPSR)
T5038 001:318.417 - 0.019ms returns 0x01000000
T5038 001:318.657   JLINK_ReadMemEx(0x080000E0, 0x003C Bytes, ..., Flags = 0x02000000)
T5038 001:318.682   CPU_ReadMem(60 bytes @ 0x080000E0)
T5038 001:320.097   Data:  04 48 80 47 04 48 00 47 FE E7 FE E7 FE E7 FE E7 ...
T5038 001:320.115 - 1.463ms returns 0x3C
T5038 001:320.128   JLINK_ReadMemEx(0x080000E0, 0x0002 Bytes, ..., Flags = 0x02000000)
T5038 001:320.144   CPU_ReadMem(2 bytes @ 0x080000E0)
T5038 001:321.410   Data:  04 48
T5038 001:321.429 - 1.306ms returns 0x02
T5038 001:321.497   JLINK_ReadMemEx(0x080000E2, 0x0002 Bytes, ..., Flags = 0x02000000)
T5038 001:321.514   CPU_ReadMem(2 bytes @ 0x080000E2)
T5038 001:322.420   Data:  80 47
T5038 001:322.439 - 0.947ms returns 0x02
T5038 001:440.953   JLINK_ReadMemEx(0x40013800, 0x0014 Bytes, ..., Flags = 0x02000004)
T5038 001:440.992   CPU_ReadMem(20 bytes @ 0x40013800)
T5038 001:441.613   Data:  00 00 00 00 00 00 00 00 00 00 00 00 00 00 00 00 ...
T5038 001:441.631 - 0.683ms returns 0x14
T5038 001:441.646   JLINK_ReadMemEx(0x40013814, 0x0004 Bytes, ..., Flags = 0x02000004)
T5038 001:441.664   CPU_ReadMem(4 bytes @ 0x40013814)
T5038 001:442.633   Data:  00 00 00 00
T5038 001:442.650 - 1.009ms returns 0x04
T5038 001:442.664   JLINK_ReadMemEx(0x4001381C, 0x0004 Bytes, ..., Flags = 0x02000004)
T5038 001:442.679   CPU_ReadMem(4 bytes @ 0x4001381C)
T5038 001:443.703   Data:  C0 00 00 00
T5038 001:443.722 - 1.064ms returns 0x04
T5038 001:443.737   JLINK_ReadMemEx(0x40013824, 0x0004 Bytes, ..., Flags = 0x02000004)
T5038 001:443.754   CPU_ReadMem(4 bytes @ 0x40013824)
T5038 001:444.446   Data:  00 00 00 00
T5038 001:444.465 - 0.733ms returns 0x04
T5038 001:444.480   JLINK_ReadMemEx(0x40013828, 0x0004 Bytes, ..., Flags = 0x02000004)
T5038 001:444.497   CPU_ReadMem(4 bytes @ 0x40013828)
T5038 001:445.194   Data:  00 00 00 00
T5038 001:445.213 - 0.738ms returns 0x04
T5038 001:445.227   JLINK_ReadMemEx(0x400138C0, 0x0004 Bytes, ..., Flags = 0x02000004)
T5038 001:445.245   CPU_ReadMem(4 bytes @ 0x400138C0)
T5038 001:445.959   Data:  00 00 00 00
T5038 001:445.979 - 0.756ms returns 0x04
T5038 001:445.995   JLINK_ReadMemEx(0x400138D0, 0x0004 Bytes, ..., Flags = 0x02000004)
T5038 001:446.012   CPU_ReadMem(4 bytes @ 0x400138D0)
T5038 001:446.723   Data:  00 04 00 00
T5038 001:446.743 - 0.752ms returns 0x04
T5038 002:603.837   JLINK_ReadMemEx(0x080000E0, 0x003C Bytes, ..., Flags = 0x02000000)
T5038 002:603.884   CPU_ReadMem(60 bytes @ 0x080000E0)
T5038 002:604.916   Data:  04 48 80 47 04 48 00 47 FE E7 FE E7 FE E7 FE E7 ...
T5038 002:604.937 - 1.106ms returns 0x3C
T5038 002:604.951   JLINK_ReadMemEx(0x080000E0, 0x0002 Bytes, ..., Flags = 0x02000000)
T5038 002:604.968   CPU_ReadMem(2 bytes @ 0x080000E0)
T5038 002:606.327   Data:  04 48
T5038 002:606.346 - 1.401ms returns 0x02
T5038 002:606.361   JLINK_ReadMemEx(0x080000E2, 0x0002 Bytes, ..., Flags = 0x02000000)
T5038 002:606.378   CPU_ReadMem(2 bytes @ 0x080000E2)
T5038 002:607.730   Data:  80 47
T5038 002:607.749 - 1.393ms returns 0x02
T5038 002:607.775   JLINK_ReadMemEx(0x080000E2, 0x0002 Bytes, ..., Flags = 0x02000000)
T5038 002:607.793   CPU_ReadMem(2 bytes @ 0x080000E2)
T5038 002:608.872   Data:  80 47
T5038 002:608.891 - 1.122ms returns 0x02
T5038 002:608.905   JLINK_ReadMemEx(0x080000E4, 0x003C Bytes, ..., Flags = 0x02000000)
T5038 002:608.922   CPU_ReadMem(60 bytes @ 0x080000E4)
T5038 002:609.756   Data:  04 48 00 47 FE E7 FE E7 FE E7 FE E7 FE E7 FE E7 ...
T5038 002:609.775 - 0.874ms returns 0x3C
T5038 002:609.788   JLINK_ReadMemEx(0x080000E4, 0x0002 Bytes, ..., Flags = 0x02000000)
T5038 002:609.805   CPU_ReadMem(2 bytes @ 0x080000E4)
T5038 002:611.017   Data:  04 48
T5038 002:611.037 - 1.254ms returns 0x02
T5038 002:915.065 JLINK_ReadReg(R0)
T5038 002:916.177 - 1.124ms returns 0xFFFFFFFF
T5038 002:916.200 JLINK_ReadReg(R1)
T5038 002:916.211 - 0.016ms returns 0xFFFFFFFF
T5038 002:916.223 JLINK_ReadReg(R2)
T5038 002:916.233 - 0.015ms returns 0xFFFFFFFF
T5038 002:916.244 JLINK_ReadReg(R3)
T5038 002:916.303 - 0.064ms returns 0xFFFFFFFF
T5038 002:916.315 JLINK_ReadReg(R4)
T5038 002:916.325 - 0.014ms returns 0xFFFFFFFF
T5038 002:916.336 JLINK_ReadReg(R5)
T5038 002:916.346 - 0.014ms returns 0xFFFFFFFF
T5038 002:916.357 JLINK_ReadReg(R6)
T5038 002:916.367 - 0.014ms returns 0xFFFFFFFF
T5038 002:916.378 JLINK_ReadReg(R7)
T5038 002:916.387 - 0.014ms returns 0xFFFFFFFF
T5038 002:916.398 JLINK_ReadReg(R8)
T5038 002:916.408 - 0.014ms returns 0xFFFFFFFF
T5038 002:916.419 JLINK_ReadReg(R9)
T5038 002:916.429 - 0.014ms returns 0xFFFFFFFF
T5038 002:916.439 JLINK_ReadReg(R10)
T5038 002:916.449 - 0.014ms returns 0xFFFFFFFF
T5038 002:916.460 JLINK_ReadReg(R11)
T5038 002:916.469 - 0.014ms returns 0xFFFFFFFF
T5038 002:916.480 JLINK_ReadReg(R12)
T5038 002:916.491 - 0.016ms returns 0xFFFFFFFF
T5038 002:916.502 JLINK_ReadReg(R13 (SP))
T5038 002:916.512 - 0.014ms returns 0x20001940
T5038 002:916.523 JLINK_ReadReg(R14)
T5038 002:916.533 - 0.014ms returns 0xFFFFFFFF
T5038 002:916.543 JLINK_ReadReg(R15 (PC))
T5038 002:916.553 - 0.014ms returns 0x080000E0
T5038 002:916.564 JLINK_ReadReg(XPSR)
T5038 002:916.573 - 0.014ms returns 0x01000000
T5038 002:916.584 JLINK_ReadReg(MSP)
T5038 002:916.593 - 0.014ms returns 0x20001940
T5038 002:916.604 JLINK_ReadReg(PSP)
T5038 002:916.613 - 0.014ms returns 0xFFFFFFFC
T5038 002:916.624 JLINK_ReadReg(CFBP)
T5038 002:916.633 - 0.014ms returns 0x00000000
T5038 002:916.646 JLINK_ReadReg(MSP_NS)
T5038 002:916.656 - 0.014ms returns 0x00000000
T5038 002:916.667 JLINK_ReadReg(PSP_NS)
T5038 002:916.676 - 0.014ms returns 0x00000000
T5038 002:916.687 JLINK_ReadReg(MSP_S)
T5038 002:916.696 - 0.014ms returns 0x00000000
T5038 002:916.707 JLINK_ReadReg(PSP_S)
T5038 002:916.716 - 0.014ms returns 0x00000000
T5038 002:916.727 JLINK_ReadReg(MSPLIM_S)
T5038 002:916.736 - 0.014ms returns 0x00000000
T5038 002:916.747 JLINK_ReadReg(PSPLIM_S)
T5038 002:916.756 - 0.014ms returns 0x00000000
T5038 002:916.767 JLINK_ReadReg(MSPLIM_NS)
T5038 002:916.776 - 0.014ms returns 0x00000000
T5038 002:916.787 JLINK_ReadReg(PSPLIM_NS)
T5038 002:916.796 - 0.014ms returns 0x00000000
T5038 002:916.807 JLINK_ReadReg(CFBP_S)
T5038 002:916.817 - 0.014ms returns 0x00000000
T5038 002:916.827 JLINK_ReadReg(CFBP_NS)
T5038 002:916.837 - 0.014ms returns 0x00000000
T53E8 002:959.825   JLINK_ReadMemEx(0x080000E0, 0x0002 Bytes, ..., Flags = 0x02000000)
T53E8 002:959.867   CPU_ReadMem(2 bytes @ 0x080000E0)
T53E8 002:960.869   Data:  04 48
T53E8 002:960.929 - 1.111ms returns 0x02
T53E8 002:960.960   JLINK_SetBPEx(Addr = 0x080024EC, Type = 0xFFFFFFF2)
T53E8 002:960.988 - 0.035ms returns 0x00000001
T53E8 002:961.005   JLINK_SetBPEx(Addr = 0x080015AE, Type = 0xFFFFFFF2)
T53E8 002:961.022 - 0.024ms returns 0x00000002
T53E8 002:961.044 JLINK_Go()
T53E8 002:961.075   CPU_WriteMem(4 bytes @ 0xE0002000)
T53E8 002:962.080   CPU_WriteMem(4 bytes @ 0xE0002000)
T53E8 002:962.889   CPU_ReadMem(4 bytes @ 0xE0001000)
T53E8 002:963.660   CPU_WriteMem(4 bytes @ 0xE0001000)
T53E8 002:963.684   CPU_WriteMem(4 bytes @ 0xE0002008)
T53E8 002:963.698   CPU_WriteMem(4 bytes @ 0xE000200C)
T53E8 002:963.712   CPU_WriteMem(4 bytes @ 0xE0002010)
T53E8 002:963.726   CPU_WriteMem(4 bytes @ 0xE0002014)
T53E8 002:964.954   CPU_WriteMem(4 bytes @ 0xE0001004)
T53E8 002:966.526 - 5.496ms
T53E8 003:067.692 JLINK_IsHalted()
T53E8 003:072.077 - 4.408ms returns TRUE
T53E8 003:072.113 JLINK_Halt()
T53E8 003:072.124 - 0.014ms returns 0x00
T53E8 003:072.135 JLINK_IsHalted()
T53E8 003:072.144 - 0.013ms returns TRUE
T53E8 003:072.155 JLINK_IsHalted()
T53E8 003:072.163 - 0.013ms returns TRUE
T53E8 003:072.174 JLINK_IsHalted()
T53E8 003:072.183 - 0.013ms returns TRUE
T53E8 003:072.196 JLINK_ReadReg(R15 (PC))
T53E8 003:072.210   CPU_ReadMem(4 bytes @ 0xE000EE08)
T53E8 003:073.578 - 1.404ms returns 0x080024EC
T53E8 003:073.611 JLINK_ReadReg(XPSR)
T53E8 003:073.627 - 0.021ms returns 0x61000000
T53E8 003:073.646 JLINK_ClrBPEx(BPHandle = 0x00000001)
T53E8 003:073.657 - 0.015ms returns 0x00
T53E8 003:073.669 JLINK_ClrBPEx(BPHandle = 0x00000002)
T53E8 003:073.685 - 0.020ms returns 0x00
T53E8 003:073.700 JLINK_ReadMemU32(0xE000ED30, 0x0001 Items, ...)
T53E8 003:073.713   CPU_ReadMem(4 bytes @ 0xE000ED30)
T53E8 003:074.910   Data:  02 00 00 00
T53E8 003:074.941 - 1.246ms returns 1
T53E8 003:074.958 JLINK_ReadMemU32(0xE0001028, 0x0001 Items, ...)
T53E8 003:074.977   CPU_ReadMem(4 bytes @ 0xE0001028)
T53E8 003:076.326   Data:  00 00 00 50
T53E8 003:076.832    - DWT_FUNC[0]
T53E8 003:076.863 - 1.909ms returns 1
T53E8 003:076.881 JLINK_ReadMemU32(0xE0001038, 0x0001 Items, ...)
T53E8 003:076.907   CPU_ReadMem(4 bytes @ 0xE0001038)
T53E8 003:078.257   Data:  00 00 00 D0
T53E8 003:078.291    - DWT_FUNC[1]
T53E8 003:078.304 - 1.427ms returns 1
T53E8 003:078.357 JLINK_ReadReg(R0)
T53E8 003:078.374 - 0.022ms returns 0x080024ED
T53E8 003:078.387 JLINK_ReadReg(R1)
T53E8 003:078.397 - 0.015ms returns 0x20001940
T53E8 003:078.408 JLINK_ReadReg(R2)
T53E8 003:078.418 - 0.014ms returns 0x00000000
T53E8 003:078.499 JLINK_ReadReg(R3)
T53E8 003:078.519 - 0.025ms returns 0x08002F23
T53E8 003:078.531 JLINK_ReadReg(R4)
T53E8 003:078.542 - 0.015ms returns 0x080031C8
T53E8 003:078.553 JLINK_ReadReg(R5)
T53E8 003:078.563 - 0.014ms returns 0x00000001
T53E8 003:078.573 JLINK_ReadReg(R6)
T53E8 003:078.583 - 0.014ms returns 0x080031C8
T53E8 003:078.594 JLINK_ReadReg(R7)
T53E8 003:078.603 - 0.014ms returns 0xFFFFFFFF
T53E8 003:078.614 JLINK_ReadReg(R8)
T53E8 003:078.624 - 0.014ms returns 0xFFFFFFFF
T53E8 003:078.635 JLINK_ReadReg(R9)
T53E8 003:078.644 - 0.014ms returns 0xFFFFFFFF
T53E8 003:078.655 JLINK_ReadReg(R10)
T53E8 003:078.664 - 0.014ms returns 0xFFFFFFFF
T53E8 003:078.676 JLINK_ReadReg(R11)
T53E8 003:078.686 - 0.014ms returns 0xFFFFFFFF
T53E8 003:078.696 JLINK_ReadReg(R12)
T53E8 003:078.706 - 0.014ms returns 0xFFFFFFFF
T53E8 003:078.717 JLINK_ReadReg(R13 (SP))
T53E8 003:078.727 - 0.014ms returns 0x20001940
T53E8 003:078.738 JLINK_ReadReg(R14)
T53E8 003:078.748 - 0.014ms returns 0x08000161
T53E8 003:078.758 JLINK_ReadReg(R15 (PC))
T53E8 003:078.768 - 0.014ms returns 0x080024EC
T53E8 003:078.779 JLINK_ReadReg(XPSR)
T53E8 003:078.788 - 0.014ms returns 0x61000000
T53E8 003:078.799 JLINK_ReadReg(MSP)
T53E8 003:078.809 - 0.014ms returns 0x20001940
T53E8 003:078.820 JLINK_ReadReg(PSP)
T53E8 003:078.829 - 0.014ms returns 0xFFFFFFFC
T53E8 003:078.840 JLINK_ReadReg(CFBP)
T53E8 003:078.849 - 0.014ms returns 0x00000000
T53E8 003:078.863 JLINK_ReadReg(MSP_NS)
T53E8 003:078.873 - 0.014ms returns 0x00000000
T53E8 003:078.883 JLINK_ReadReg(PSP_NS)
T53E8 003:078.893 - 0.014ms returns 0x00000000
T53E8 003:078.904 JLINK_ReadReg(MSP_S)
T53E8 003:078.913 - 0.014ms returns 0x00000000
T53E8 003:078.924 JLINK_ReadReg(PSP_S)
T53E8 003:078.934 - 0.014ms returns 0x00000000
T53E8 003:078.944 JLINK_ReadReg(MSPLIM_S)
T53E8 003:078.954 - 0.014ms returns 0x00000000
T53E8 003:078.965 JLINK_ReadReg(PSPLIM_S)
T53E8 003:078.974 - 0.014ms returns 0x00000000
T53E8 003:078.987 JLINK_ReadReg(MSPLIM_NS)
T53E8 003:078.997 - 0.014ms returns 0x00000000
T53E8 003:079.007 JLINK_ReadReg(PSPLIM_NS)
T53E8 003:079.017 - 0.014ms returns 0x00000000
T53E8 003:079.028 JLINK_ReadReg(CFBP_S)
T53E8 003:079.037 - 0.014ms returns 0x00000000
T53E8 003:079.048 JLINK_ReadReg(CFBP_NS)
T53E8 003:079.058 - 0.014ms returns 0x00000000
T5038 003:082.040   JLINK_ReadMemEx(0x40013800, 0x0014 Bytes, ..., Flags = 0x02000004)
T5038 003:082.068   CPU_ReadMem(20 bytes @ 0x40013800)
T5038 003:084.124   Data:  00 00 00 00 00 00 00 00 00 00 00 00 00 00 00 00 ...
T5038 003:084.157 - 2.122ms returns 0x14
T5038 003:084.176   JLINK_ReadMemEx(0x40013814, 0x0004 Bytes, ..., Flags = 0x02000004)
T5038 003:084.198   CPU_ReadMem(4 bytes @ 0x40013814)
T5038 003:085.348   Data:  00 00 00 00
T5038 003:085.380 - 1.209ms returns 0x04
T5038 003:085.400   JLINK_ReadMemEx(0x4001381C, 0x0004 Bytes, ..., Flags = 0x02000004)
T5038 003:085.422   CPU_ReadMem(4 bytes @ 0x4001381C)
T5038 003:086.699   Data:  C0 00 00 00
T5038 003:086.731 - 1.336ms returns 0x04
T5038 003:086.753   JLINK_ReadMemEx(0x40013824, 0x0004 Bytes, ..., Flags = 0x02000004)
T5038 003:086.778   CPU_ReadMem(4 bytes @ 0x40013824)
T5038 003:087.953   Data:  00 00 00 00
T5038 003:087.986 - 1.238ms returns 0x04
T5038 003:088.005   JLINK_ReadMemEx(0x40013828, 0x0004 Bytes, ..., Flags = 0x02000004)
T5038 003:088.027   CPU_ReadMem(4 bytes @ 0x40013828)
T5038 003:089.302   Data:  00 00 00 00
T5038 003:089.330 - 1.329ms returns 0x04
T5038 003:089.348   JLINK_ReadMemEx(0x400138C0, 0x0004 Bytes, ..., Flags = 0x02000004)
T5038 003:089.369   CPU_ReadMem(4 bytes @ 0x400138C0)
T5038 003:090.314   Data:  00 00 00 00
T5038 003:090.336 - 0.994ms returns 0x04
T5038 003:090.352   JLINK_ReadMemEx(0x400138D0, 0x0004 Bytes, ..., Flags = 0x02000004)
T5038 003:090.371   CPU_ReadMem(4 bytes @ 0x400138D0)
T5038 003:091.095   Data:  00 04 00 00
T5038 003:091.114 - 0.767ms returns 0x04
T53E8 003:813.614   JLINK_ReadMemEx(0x080024EC, 0x0002 Bytes, ..., Flags = 0x02000000)
T53E8 003:813.661   CPU_ReadMem(64 bytes @ 0x080024C0)
T53E8 003:814.485    -- Updating DA cache (64 bytes @ 0x080024C0)
T53E8 003:814.506    -- Read from DA cache (2 bytes @ 0x080024EC)
T53E8 003:814.520   Data:  80 B5
T53E8 003:814.533 - 0.924ms returns 0x02
T53E8 003:814.549   JLINK_SetBPEx(Addr = 0x080015AE, Type = 0xFFFFFFF2)
T53E8 003:814.565 - 0.021ms returns 0x00000003
T53E8 003:814.580 JLINK_Go()
T53E8 003:815.610   CPU_WriteMem(4 bytes @ 0xE0002000)
T53E8 003:816.345   CPU_ReadMem(4 bytes @ 0xE0001000)
T53E8 003:817.040   CPU_WriteMem(4 bytes @ 0xE0001000)
T53E8 003:817.058   CPU_WriteMem(4 bytes @ 0xE0002008)
T53E8 003:817.072   CPU_WriteMem(4 bytes @ 0xE000200C)
T53E8 003:819.746 - 5.174ms
T53E8 003:920.078 JLINK_IsHalted()
T53E8 003:920.807 - 0.740ms returns FALSE
T53E8 004:021.871 JLINK_IsHalted()
T53E8 004:023.344 - 1.483ms returns FALSE
T53E8 004:124.364 JLINK_IsHalted()
T53E8 004:125.898 - 1.544ms returns FALSE
T53E8 004:226.719 JLINK_IsHalted()
T53E8 004:227.778 - 1.079ms returns FALSE
T53E8 004:328.779 JLINK_IsHalted()
T53E8 004:330.514 - 1.757ms returns FALSE
T5038 004:431.278   JLINK_ReadMemEx(0x40013800, 0x0014 Bytes, ..., Flags = 0x02000004)
T5038 004:431.319   CPU_ReadMem(20 bytes @ 0x40013800)
T5038 004:432.406   Data:  1D 00 00 00 00 00 00 00 C0 00 00 00 4C 1D 00 00 ...
T5038 004:432.424 - 1.151ms returns 0x14
T5038 004:432.438   JLINK_ReadMemEx(0x40013814, 0x0004 Bytes, ..., Flags = 0x02000004)
T5038 004:432.454   CPU_ReadMem(4 bytes @ 0x40013814)
T5038 004:433.880   Data:  00 00 00 00
T5038 004:433.900 - 1.466ms returns 0x04
T5038 004:433.916   JLINK_ReadMemEx(0x4001381C, 0x0004 Bytes, ..., Flags = 0x02000004)
T5038 004:433.933   CPU_ReadMem(4 bytes @ 0x4001381C)
T5038 004:435.304   Data:  80 00 60 00
T5038 004:435.323 - 1.412ms returns 0x04
T5038 004:435.339   JLINK_ReadMemEx(0x40013824, 0x0004 Bytes, ..., Flags = 0x02000004)
T5038 004:435.357   CPU_ReadMem(4 bytes @ 0x40013824)
T5038 004:436.456   Data:  00 00 00 00
T5038 004:436.475 - 1.141ms returns 0x04
T5038 004:436.491   JLINK_ReadMemEx(0x40013828, 0x0004 Bytes, ..., Flags = 0x02000004)
T5038 004:436.509   CPU_ReadMem(4 bytes @ 0x40013828)
T5038 004:438.124   Data:  00 00 00 00
T5038 004:438.143 - 1.656ms returns 0x04
T5038 004:438.158   JLINK_ReadMemEx(0x400138C0, 0x0004 Bytes, ..., Flags = 0x02000004)
T5038 004:438.176   CPU_ReadMem(4 bytes @ 0x400138C0)
T5038 004:438.857   Data:  00 00 00 00
T5038 004:438.877 - 0.723ms returns 0x04
T5038 004:438.893   JLINK_ReadMemEx(0x400138D0, 0x0004 Bytes, ..., Flags = 0x02000004)
T5038 004:438.910   CPU_ReadMem(4 bytes @ 0x400138D0)
T5038 004:439.613   Data:  00 04 00 00
T5038 004:439.632 - 0.745ms returns 0x04
T53E8 004:453.671 JLINK_IsHalted()
T53E8 004:454.539 - 0.878ms returns FALSE
T53E8 004:554.821 JLINK_IsHalted()
T53E8 004:555.546 - 0.735ms returns FALSE
T53E8 004:656.240 JLINK_IsHalted()
T53E8 004:657.704 - 1.488ms returns FALSE
T53E8 004:758.439 JLINK_IsHalted()
T53E8 004:759.833 - 1.418ms returns FALSE
T53E8 004:860.449 JLINK_IsHalted()
T53E8 004:861.466 - 1.034ms returns FALSE
T5038 004:963.270   JLINK_ReadMemEx(0x40013800, 0x0014 Bytes, ..., Flags = 0x02000004)
T5038 004:963.305   CPU_ReadMem(20 bytes @ 0x40013800)
T5038 004:964.653   Data:  1D 00 00 00 00 00 00 00 C0 00 00 00 4C 1D 00 00 ...
T5038 004:964.671 - 1.407ms returns 0x14
T5038 004:964.686   JLINK_ReadMemEx(0x40013814, 0x0004 Bytes, ..., Flags = 0x02000004)
T5038 004:964.703   CPU_ReadMem(4 bytes @ 0x40013814)
T5038 004:965.681   Data:  00 00 00 00
T5038 004:965.701 - 1.020ms returns 0x04
T5038 004:965.716   JLINK_ReadMemEx(0x4001381C, 0x0004 Bytes, ..., Flags = 0x02000004)
T5038 004:965.733   CPU_ReadMem(4 bytes @ 0x4001381C)
T5038 004:966.775   Data:  80 00 60 00
T5038 004:966.795 - 1.084ms returns 0x04
T5038 004:966.810   JLINK_ReadMemEx(0x40013824, 0x0004 Bytes, ..., Flags = 0x02000004)
T5038 004:966.828   CPU_ReadMem(4 bytes @ 0x40013824)
T5038 004:967.756   Data:  00 00 00 00
T5038 004:967.775 - 0.970ms returns 0x04
T5038 004:967.790   JLINK_ReadMemEx(0x40013828, 0x0004 Bytes, ..., Flags = 0x02000004)
T5038 004:967.807   CPU_ReadMem(4 bytes @ 0x40013828)
T5038 004:968.531   Data:  00 00 00 00
T5038 004:968.550 - 0.765ms returns 0x04
T5038 004:968.564   JLINK_ReadMemEx(0x400138C0, 0x0004 Bytes, ..., Flags = 0x02000004)
T5038 004:968.582   CPU_ReadMem(4 bytes @ 0x400138C0)
T5038 004:969.256   Data:  00 00 00 00
T5038 004:969.276 - 0.716ms returns 0x04
T5038 004:969.290   JLINK_ReadMemEx(0x400138D0, 0x0004 Bytes, ..., Flags = 0x02000004)
T5038 004:969.308   CPU_ReadMem(4 bytes @ 0x400138D0)
T5038 004:970.058   Data:  00 04 00 00
T5038 004:970.078 - 0.793ms returns 0x04
T53E8 004:970.445 JLINK_IsHalted()
T53E8 004:971.294 - 0.857ms returns FALSE
T53E8 005:071.831 JLINK_IsHalted()
T53E8 005:073.206 - 1.398ms returns FALSE
T53E8 005:174.033 JLINK_IsHalted()
T53E8 005:175.248 - 1.238ms returns FALSE
T53E8 005:276.033 JLINK_IsHalted()
T53E8 005:277.380 - 1.357ms returns FALSE
T53E8 005:378.390 JLINK_IsHalted()
T53E8 005:379.607 - 1.227ms returns FALSE
T5038 005:480.622   JLINK_ReadMemEx(0x40013800, 0x0014 Bytes, ..., Flags = 0x02000004)
T5038 005:480.663   CPU_ReadMem(20 bytes @ 0x40013800)
T5038 005:481.310   Data:  1D 00 00 00 00 00 00 00 C0 00 00 00 4C 1D 00 00 ...
T5038 005:481.340 - 0.725ms returns 0x14
T5038 005:481.361   JLINK_ReadMemEx(0x40013814, 0x0004 Bytes, ..., Flags = 0x02000004)
T5038 005:481.382   CPU_ReadMem(4 bytes @ 0x40013814)
T5038 005:482.056   Data:  00 00 00 00
T5038 005:482.079 - 0.724ms returns 0x04
T5038 005:482.095   JLINK_ReadMemEx(0x4001381C, 0x0004 Bytes, ..., Flags = 0x02000004)
T5038 005:482.119   CPU_ReadMem(4 bytes @ 0x4001381C)
T5038 005:482.806   Data:  80 00 60 00
T5038 005:482.833 - 0.744ms returns 0x04
T5038 005:482.855   JLINK_ReadMemEx(0x40013824, 0x0004 Bytes, ..., Flags = 0x02000004)
T5038 005:482.873   CPU_ReadMem(4 bytes @ 0x40013824)
T5038 005:483.505   Data:  00 00 00 00
T5038 005:483.531 - 0.683ms returns 0x04
T5038 005:483.552   JLINK_ReadMemEx(0x40013828, 0x0004 Bytes, ..., Flags = 0x02000004)
T5038 005:483.574   CPU_ReadMem(4 bytes @ 0x40013828)
T5038 005:484.304   Data:  00 00 00 00
T5038 005:484.370 - 0.826ms returns 0x04
T5038 005:484.392   JLINK_ReadMemEx(0x400138C0, 0x0004 Bytes, ..., Flags = 0x02000004)
T5038 005:484.418   CPU_ReadMem(4 bytes @ 0x400138C0)
T5038 005:485.051   Data:  00 00 00 00
T5038 005:485.071 - 0.684ms returns 0x04
T5038 005:485.086   JLINK_ReadMemEx(0x400138D0, 0x0004 Bytes, ..., Flags = 0x02000004)
T5038 005:485.104   CPU_ReadMem(4 bytes @ 0x400138D0)
T5038 005:485.844   Data:  00 04 00 00
T5038 005:485.866 - 0.785ms returns 0x04
T53E8 005:486.288 JLINK_IsHalted()
T53E8 005:487.161 - 0.892ms returns FALSE
T53E8 005:587.650 JLINK_IsHalted()
T53E8 005:588.851 - 1.224ms returns FALSE
T53E8 005:689.124 JLINK_IsHalted()
T53E8 005:690.423 - 1.309ms returns FALSE
T53E8 005:791.155 JLINK_IsHalted()
T53E8 005:792.341 - 1.209ms returns FALSE
T53E8 005:892.973 JLINK_IsHalted()
T53E8 005:894.202 - 1.255ms returns FALSE
T5038 005:994.789   JLINK_ReadMemEx(0x40013800, 0x0014 Bytes, ..., Flags = 0x02000004)
T5038 005:994.895   CPU_ReadMem(20 bytes @ 0x40013800)
T5038 005:996.391   Data:  1D 00 00 00 00 00 00 00 C0 00 00 00 4C 1D 00 00 ...
T5038 005:996.422 - 1.638ms returns 0x14
T5038 005:996.441   JLINK_ReadMemEx(0x40013814, 0x0004 Bytes, ..., Flags = 0x02000004)
T5038 005:996.463   CPU_ReadMem(4 bytes @ 0x40013814)
T5038 005:997.664   Data:  00 00 00 00
T5038 005:997.709 - 1.274ms returns 0x04
T5038 005:997.736   JLINK_ReadMemEx(0x4001381C, 0x0004 Bytes, ..., Flags = 0x02000004)
T5038 005:997.760   CPU_ReadMem(4 bytes @ 0x4001381C)
T5038 005:998.483   Data:  80 00 60 00
T5038 005:998.506 - 0.775ms returns 0x04
T5038 005:998.525   JLINK_ReadMemEx(0x40013824, 0x0004 Bytes, ..., Flags = 0x02000004)
T5038 005:998.544   CPU_ReadMem(4 bytes @ 0x40013824)
T5038 005:999.582   Data:  00 00 00 00
T5038 005:999.601 - 1.081ms returns 0x04
T5038 005:999.617   JLINK_ReadMemEx(0x40013828, 0x0004 Bytes, ..., Flags = 0x02000004)
T5038 005:999.634   CPU_ReadMem(4 bytes @ 0x40013828)
T5038 006:000.617   Data:  00 00 00 00
T5038 006:000.637 - 1.025ms returns 0x04
T5038 006:000.653   JLINK_ReadMemEx(0x400138C0, 0x0004 Bytes, ..., Flags = 0x02000004)
T5038 006:000.670   CPU_ReadMem(4 bytes @ 0x400138C0)
T5038 006:001.334   Data:  00 00 00 00
T5038 006:001.353 - 0.705ms returns 0x04
T5038 006:001.369   JLINK_ReadMemEx(0x400138D0, 0x0004 Bytes, ..., Flags = 0x02000004)
T5038 006:001.386   CPU_ReadMem(4 bytes @ 0x400138D0)
T5038 006:002.117   Data:  00 04 00 00
T5038 006:002.135 - 0.771ms returns 0x04
T53E8 006:002.502 JLINK_IsHalted()
T53E8 006:003.500 - 1.008ms returns FALSE
T53E8 006:104.092 JLINK_IsHalted()
T53E8 006:104.580 - 0.514ms returns FALSE
T53E8 006:205.718 JLINK_IsHalted()
T53E8 006:206.885 - 1.189ms returns FALSE
T53E8 006:307.384 JLINK_IsHalted()
T53E8 006:308.803 - 1.442ms returns FALSE
T53E8 006:409.158 JLINK_IsHalted()
T53E8 006:410.821 - 1.686ms returns FALSE
T5038 006:512.898   JLINK_ReadMemEx(0x40013800, 0x0014 Bytes, ..., Flags = 0x02000004)
T5038 006:512.941   CPU_ReadMem(20 bytes @ 0x40013800)
T5038 006:514.158   Data:  1D 00 00 00 00 00 00 00 C0 00 00 00 4C 1D 00 00 ...
T5038 006:514.177 - 1.284ms returns 0x14
T5038 006:514.195   JLINK_ReadMemEx(0x40013814, 0x0004 Bytes, ..., Flags = 0x02000004)
T5038 006:514.212   CPU_ReadMem(4 bytes @ 0x40013814)
T5038 006:514.705   Data:  00 00 00 00
T5038 006:514.722 - 0.535ms returns 0x04
T5038 006:514.742   JLINK_ReadMemEx(0x4001381C, 0x0004 Bytes, ..., Flags = 0x02000004)
T5038 006:514.758   CPU_ReadMem(4 bytes @ 0x4001381C)
T5038 006:515.499   Data:  80 00 60 00
T5038 006:515.516 - 0.779ms returns 0x04
T5038 006:515.531   JLINK_ReadMemEx(0x40013824, 0x0004 Bytes, ..., Flags = 0x02000004)
T5038 006:515.548   CPU_ReadMem(4 bytes @ 0x40013824)
T5038 006:516.250   Data:  00 00 00 00
T5038 006:516.267 - 0.740ms returns 0x04
T5038 006:516.282   JLINK_ReadMemEx(0x40013828, 0x0004 Bytes, ..., Flags = 0x02000004)
T5038 006:516.298   CPU_ReadMem(4 bytes @ 0x40013828)
T5038 006:516.966   Data:  00 00 00 00
T5038 006:516.984 - 0.706ms returns 0x04
T5038 006:516.999   JLINK_ReadMemEx(0x400138C0, 0x0004 Bytes, ..., Flags = 0x02000004)
T5038 006:517.015   CPU_ReadMem(4 bytes @ 0x400138C0)
T5038 006:517.715   Data:  00 00 00 00
T5038 006:517.732 - 0.738ms returns 0x04
T5038 006:517.747   JLINK_ReadMemEx(0x400138D0, 0x0004 Bytes, ..., Flags = 0x02000004)
T5038 006:517.763   CPU_ReadMem(4 bytes @ 0x400138D0)
T5038 006:518.526   Data:  00 04 00 00
T5038 006:518.543 - 0.800ms returns 0x04
T53E8 006:518.899 JLINK_IsHalted()
T53E8 006:519.822 - 0.933ms returns FALSE
T53E8 006:620.230 JLINK_IsHalted()
T53E8 006:620.980 - 0.762ms returns FALSE
T53E8 006:721.751 JLINK_IsHalted()
T53E8 006:722.588 - 0.849ms returns FALSE
T53E8 006:823.310 JLINK_IsHalted()
T53E8 006:824.202 - 0.903ms returns FALSE
T53E8 006:925.174 JLINK_IsHalted()
T53E8 006:926.378 - 1.227ms returns FALSE
T5038 007:027.765   JLINK_ReadMemEx(0x40013800, 0x0014 Bytes, ..., Flags = 0x02000004)
T5038 007:027.807   CPU_ReadMem(20 bytes @ 0x40013800)
T5038 007:028.956   Data:  1D 00 00 00 00 00 00 00 C0 00 00 00 4C 1D 00 00 ...
T5038 007:028.987 - 1.228ms returns 0x14
T5038 007:029.006   JLINK_ReadMemEx(0x40013814, 0x0004 Bytes, ..., Flags = 0x02000004)
T5038 007:029.028   CPU_ReadMem(4 bytes @ 0x40013814)
T5038 007:031.047   Data:  00 00 00 00
T5038 007:031.071 - 2.070ms returns 0x04
T5038 007:031.090   JLINK_ReadMemEx(0x4001381C, 0x0004 Bytes, ..., Flags = 0x02000004)
T5038 007:031.109   CPU_ReadMem(4 bytes @ 0x4001381C)
T5038 007:032.284   Data:  80 00 60 00
T5038 007:032.315 - 1.230ms returns 0x04
T5038 007:032.337   JLINK_ReadMemEx(0x40013824, 0x0004 Bytes, ..., Flags = 0x02000004)
T5038 007:032.358   CPU_ReadMem(4 bytes @ 0x40013824)
T5038 007:034.338   Data:  00 00 00 00
T5038 007:034.365 - 2.034ms returns 0x04
T5038 007:034.386   JLINK_ReadMemEx(0x40013828, 0x0004 Bytes, ..., Flags = 0x02000004)
T5038 007:034.406   CPU_ReadMem(4 bytes @ 0x40013828)
T5038 007:035.712   Data:  00 00 00 00
T5038 007:035.734 - 1.353ms returns 0x04
T5038 007:035.751   JLINK_ReadMemEx(0x400138C0, 0x0004 Bytes, ..., Flags = 0x02000004)
T5038 007:035.770   CPU_ReadMem(4 bytes @ 0x400138C0)
T5038 007:036.925   Data:  00 00 00 00
T5038 007:036.946 - 1.200ms returns 0x04
T5038 007:036.963   JLINK_ReadMemEx(0x400138D0, 0x0004 Bytes, ..., Flags = 0x02000004)
T5038 007:036.982   CPU_ReadMem(4 bytes @ 0x400138D0)
T5038 007:038.264   Data:  00 04 00 00
T5038 007:038.288 - 1.330ms returns 0x04
T53E8 007:038.717 JLINK_IsHalted()
T53E8 007:039.865 - 1.165ms returns FALSE
T53E8 007:140.326 JLINK_IsHalted()
T53E8 007:141.606 - 1.304ms returns FALSE
T53E8 007:242.628 JLINK_IsHalted()
T53E8 007:243.861 - 1.254ms returns FALSE
T53E8 007:344.573 JLINK_IsHalted()
T53E8 007:345.497 - 0.934ms returns FALSE
T53E8 007:447.000 JLINK_IsHalted()
T53E8 007:448.600 - 1.622ms returns FALSE
T5038 007:549.099   JLINK_ReadMemEx(0x40013800, 0x0014 Bytes, ..., Flags = 0x02000004)
T5038 007:549.140   CPU_ReadMem(20 bytes @ 0x40013800)
T5038 007:549.754   Data:  1D 00 00 00 00 00 00 00 C0 00 00 00 4C 1D 00 00 ...
T5038 007:549.773 - 0.679ms returns 0x14
T5038 007:549.788   JLINK_ReadMemEx(0x40013814, 0x0004 Bytes, ..., Flags = 0x02000004)
T5038 007:549.806   CPU_ReadMem(4 bytes @ 0x40013814)
T5038 007:550.448   Data:  00 00 00 00
T5038 007:550.465 - 0.681ms returns 0x04
T5038 007:550.479   JLINK_ReadMemEx(0x4001381C, 0x0004 Bytes, ..., Flags = 0x02000004)
T5038 007:550.495   CPU_ReadMem(4 bytes @ 0x4001381C)
T5038 007:551.198   Data:  80 00 60 00
T5038 007:551.215 - 0.741ms returns 0x04
T5038 007:551.228   JLINK_ReadMemEx(0x40013824, 0x0004 Bytes, ..., Flags = 0x02000004)
T5038 007:551.244   CPU_ReadMem(4 bytes @ 0x40013824)
T5038 007:551.983   Data:  00 00 00 00
T5038 007:552.000 - 0.776ms returns 0x04
T5038 007:552.015   JLINK_ReadMemEx(0x40013828, 0x0004 Bytes, ..., Flags = 0x02000004)
T5038 007:552.031   CPU_ReadMem(4 bytes @ 0x40013828)
T5038 007:552.721   Data:  00 00 00 00
T5038 007:552.738 - 0.727ms returns 0x04
T5038 007:552.753   JLINK_ReadMemEx(0x400138C0, 0x0004 Bytes, ..., Flags = 0x02000004)
T5038 007:552.769   CPU_ReadMem(4 bytes @ 0x400138C0)
T5038 007:553.483   Data:  00 00 00 00
T5038 007:553.500 - 0.751ms returns 0x04
T5038 007:553.514   JLINK_ReadMemEx(0x400138D0, 0x0004 Bytes, ..., Flags = 0x02000004)
T5038 007:553.531   CPU_ReadMem(4 bytes @ 0x400138D0)
T5038 007:554.234   Data:  00 04 00 00
T5038 007:554.251 - 0.741ms returns 0x04
T53E8 007:563.983 JLINK_IsHalted()
T53E8 007:564.677 - 0.706ms returns FALSE
T53E8 007:666.185 JLINK_IsHalted()
T53E8 007:666.835 - 0.669ms returns FALSE
T53E8 007:767.628 JLINK_IsHalted()
T53E8 007:768.512 - 0.894ms returns FALSE
T53E8 007:869.051 JLINK_IsHalted()
T53E8 007:870.148 - 1.107ms returns FALSE
T53E8 007:971.290 JLINK_IsHalted()
T53E8 007:972.541 - 1.273ms returns FALSE
T5038 008:073.715   JLINK_ReadMemEx(0x40013800, 0x0014 Bytes, ..., Flags = 0x02000004)
T5038 008:073.757   CPU_ReadMem(20 bytes @ 0x40013800)
T5038 008:075.692   Data:  1D 00 00 00 00 00 00 00 C0 00 00 00 4C 1D 00 00 ...
T5038 008:075.731 - 2.022ms returns 0x14
T5038 008:075.751   JLINK_ReadMemEx(0x40013814, 0x0004 Bytes, ..., Flags = 0x02000004)
T5038 008:075.773   CPU_ReadMem(4 bytes @ 0x40013814)
T5038 008:077.010   Data:  00 00 00 00
T5038 008:077.042 - 1.296ms returns 0x04
T5038 008:077.062   JLINK_ReadMemEx(0x4001381C, 0x0004 Bytes, ..., Flags = 0x02000004)
T5038 008:077.084   CPU_ReadMem(4 bytes @ 0x4001381C)
T5038 008:078.444   Data:  80 00 60 00
T5038 008:078.481 - 1.425ms returns 0x04
T5038 008:078.504   JLINK_ReadMemEx(0x40013824, 0x0004 Bytes, ..., Flags = 0x02000004)
T5038 008:078.533   CPU_ReadMem(4 bytes @ 0x40013824)
T5038 008:079.876   Data:  00 00 00 00
T5038 008:079.896 - 1.397ms returns 0x04
T5038 008:079.911   JLINK_ReadMemEx(0x40013828, 0x0004 Bytes, ..., Flags = 0x02000004)
T5038 008:079.928   CPU_ReadMem(4 bytes @ 0x40013828)
T5038 008:081.498   Data:  00 00 00 00
T5038 008:081.531 - 1.625ms returns 0x04
T5038 008:081.550   JLINK_ReadMemEx(0x400138C0, 0x0004 Bytes, ..., Flags = 0x02000004)
T5038 008:081.572   CPU_ReadMem(4 bytes @ 0x400138C0)
T5038 008:082.626   Data:  00 00 00 00
T5038 008:082.648 - 1.103ms returns 0x04
T5038 008:082.664   JLINK_ReadMemEx(0x400138D0, 0x0004 Bytes, ..., Flags = 0x02000004)
T5038 008:082.682   CPU_ReadMem(4 bytes @ 0x400138D0)
T5038 008:084.463   Data:  00 04 00 00
T5038 008:084.485 - 1.826ms returns 0x04
T53E8 008:084.929 JLINK_IsHalted()
T53E8 008:086.056 - 1.142ms returns FALSE
T53E8 008:186.930 JLINK_IsHalted()
T53E8 008:188.226 - 1.318ms returns FALSE
T53E8 008:289.260 JLINK_IsHalted()
T53E8 008:290.628 - 1.391ms returns FALSE
T53E8 008:390.992 JLINK_IsHalted()
T53E8 008:392.251 - 1.282ms returns FALSE
T53E8 008:492.682 JLINK_IsHalted()
T53E8 008:493.276 - 0.605ms returns FALSE
T5038 008:593.948   JLINK_ReadMemEx(0x40013800, 0x0014 Bytes, ..., Flags = 0x02000004)
T5038 008:593.992   CPU_ReadMem(20 bytes @ 0x40013800)
T5038 008:595.645   Data:  1D 00 00 00 00 00 00 00 C0 00 00 00 4C 1D 00 00 ...
T5038 008:595.677 - 1.734ms returns 0x14
T5038 008:595.696   JLINK_ReadMemEx(0x40013814, 0x0004 Bytes, ..., Flags = 0x02000004)
T5038 008:595.718   CPU_ReadMem(4 bytes @ 0x40013814)
T5038 008:597.422   Data:  00 00 00 00
T5038 008:597.454 - 1.763ms returns 0x04
T5038 008:597.475   JLINK_ReadMemEx(0x4001381C, 0x0004 Bytes, ..., Flags = 0x02000004)
T5038 008:597.497   CPU_ReadMem(4 bytes @ 0x4001381C)
T5038 008:598.175   Data:  80 00 60 00
T5038 008:598.199 - 0.729ms returns 0x04
T5038 008:598.216   JLINK_ReadMemEx(0x40013824, 0x0004 Bytes, ..., Flags = 0x02000004)
T5038 008:598.235   CPU_ReadMem(4 bytes @ 0x40013824)
T5038 008:599.761   Data:  00 00 00 00
T5038 008:599.780 - 1.569ms returns 0x04
T5038 008:599.795   JLINK_ReadMemEx(0x40013828, 0x0004 Bytes, ..., Flags = 0x02000004)
T5038 008:599.812   CPU_ReadMem(4 bytes @ 0x40013828)
T5038 008:600.918   Data:  00 00 00 00
T5038 008:600.937 - 1.148ms returns 0x04
T5038 008:600.952   JLINK_ReadMemEx(0x400138C0, 0x0004 Bytes, ..., Flags = 0x02000004)
T5038 008:600.969   CPU_ReadMem(4 bytes @ 0x400138C0)
T5038 008:602.056   Data:  00 00 00 00
T5038 008:602.075 - 1.128ms returns 0x04
T5038 008:602.089   JLINK_ReadMemEx(0x400138D0, 0x0004 Bytes, ..., Flags = 0x02000004)
T5038 008:602.107   CPU_ReadMem(4 bytes @ 0x400138D0)
T5038 008:603.186   Data:  00 04 00 00
T5038 008:603.205 - 1.121ms returns 0x04
T53E8 008:603.619 JLINK_IsHalted()
T53E8 008:604.180 - 0.570ms returns FALSE
T53E8 008:704.574 JLINK_IsHalted()
T53E8 008:705.930 - 1.377ms returns FALSE
T53E8 008:806.445 JLINK_IsHalted()
T53E8 008:807.789 - 1.367ms returns FALSE
T53E8 008:908.711 JLINK_IsHalted()
T53E8 008:909.609 - 0.909ms returns FALSE
T53E8 009:009.976 JLINK_IsHalted()
T53E8 009:011.247 - 1.294ms returns FALSE
T5038 009:111.843   JLINK_ReadMemEx(0x40013800, 0x0014 Bytes, ..., Flags = 0x02000004)
T5038 009:111.885   CPU_ReadMem(20 bytes @ 0x40013800)
T5038 009:112.953   Data:  1D 00 00 00 00 00 00 00 C0 00 00 00 4C 1D 00 00 ...
T5038 009:112.976 - 1.139ms returns 0x14
T5038 009:112.995   JLINK_ReadMemEx(0x40013814, 0x0004 Bytes, ..., Flags = 0x02000004)
T5038 009:113.017   CPU_ReadMem(4 bytes @ 0x40013814)
T5038 009:113.717   Data:  00 00 00 00
T5038 009:113.738 - 0.747ms returns 0x04
T5038 009:113.753   JLINK_ReadMemEx(0x4001381C, 0x0004 Bytes, ..., Flags = 0x02000004)
T5038 009:113.770   CPU_ReadMem(4 bytes @ 0x4001381C)
T5038 009:114.411   Data:  80 00 60 00
T5038 009:114.431 - 0.683ms returns 0x04
T5038 009:114.445   JLINK_ReadMemEx(0x40013824, 0x0004 Bytes, ..., Flags = 0x02000004)
T5038 009:114.463   CPU_ReadMem(4 bytes @ 0x40013824)
T5038 009:115.255   Data:  00 00 00 00
T5038 009:115.274 - 0.833ms returns 0x04
T5038 009:115.288   JLINK_ReadMemEx(0x40013828, 0x0004 Bytes, ..., Flags = 0x02000004)
T5038 009:115.306   CPU_ReadMem(4 bytes @ 0x40013828)
T5038 009:115.936   Data:  00 00 00 00
T5038 009:115.955 - 0.672ms returns 0x04
T5038 009:115.972   JLINK_ReadMemEx(0x400138C0, 0x0004 Bytes, ..., Flags = 0x02000004)
T5038 009:115.989   CPU_ReadMem(4 bytes @ 0x400138C0)
T5038 009:116.693   Data:  00 00 00 00
T5038 009:116.712 - 0.745ms returns 0x04
T5038 009:116.728   JLINK_ReadMemEx(0x400138D0, 0x0004 Bytes, ..., Flags = 0x02000004)
T5038 009:116.746   CPU_ReadMem(4 bytes @ 0x400138D0)
T5038 009:117.431   Data:  00 04 00 00
T5038 009:117.451 - 0.727ms returns 0x04
T53E8 009:117.816 JLINK_IsHalted()
T53E8 009:118.730 - 0.923ms returns FALSE
T53E8 009:219.869 JLINK_IsHalted()
T53E8 009:220.554 - 0.694ms returns FALSE
T53E8 009:321.192 JLINK_IsHalted()
T53E8 009:322.481 - 1.312ms returns FALSE
T53E8 009:423.574 JLINK_IsHalted()
T53E8 009:425.299 - 1.750ms returns FALSE
T53E8 009:525.628 JLINK_IsHalted()
T53E8 009:526.557 - 0.939ms returns FALSE
T5038 009:627.366   JLINK_ReadMemEx(0x40013800, 0x0014 Bytes, ..., Flags = 0x02000004)
T5038 009:627.408   CPU_ReadMem(20 bytes @ 0x40013800)
T5038 009:628.205   Data:  1D 00 00 00 00 00 00 00 C0 00 00 00 4C 1D 00 00 ...
T5038 009:628.223 - 0.862ms returns 0x14
T5038 009:628.238   JLINK_ReadMemEx(0x40013814, 0x0004 Bytes, ..., Flags = 0x02000004)
T5038 009:628.257   CPU_ReadMem(4 bytes @ 0x40013814)
T5038 009:628.935   Data:  00 00 00 00
T5038 009:628.956 - 0.724ms returns 0x04
T5038 009:628.972   JLINK_ReadMemEx(0x4001381C, 0x0004 Bytes, ..., Flags = 0x02000004)
T5038 009:628.990   CPU_ReadMem(4 bytes @ 0x4001381C)
T5038 009:629.661   Data:  80 00 60 00
T5038 009:629.688 - 0.723ms returns 0x04
T5038 009:629.707   JLINK_ReadMemEx(0x40013824, 0x0004 Bytes, ..., Flags = 0x02000004)
T5038 009:629.725   CPU_ReadMem(4 bytes @ 0x40013824)
T5038 009:630.459   Data:  00 00 00 00
T5038 009:630.516 - 0.814ms returns 0x04
T5038 009:630.544   JLINK_ReadMemEx(0x40013828, 0x0004 Bytes, ..., Flags = 0x02000004)
T5038 009:630.576   CPU_ReadMem(4 bytes @ 0x40013828)
T5038 009:631.173   Data:  00 00 00 00
T5038 009:631.210 - 0.671ms returns 0x04
T5038 009:631.226   JLINK_ReadMemEx(0x400138C0, 0x0004 Bytes, ..., Flags = 0x02000004)
T5038 009:631.247   CPU_ReadMem(4 bytes @ 0x400138C0)
T5038 009:631.872   Data:  00 00 00 00
T5038 009:631.892 - 0.671ms returns 0x04
T5038 009:631.907   JLINK_ReadMemEx(0x400138D0, 0x0004 Bytes, ..., Flags = 0x02000004)
T5038 009:631.924   CPU_ReadMem(4 bytes @ 0x400138D0)
T5038 009:632.719   Data:  00 04 00 00
T5038 009:632.738 - 0.836ms returns 0x04
T53E8 009:633.140 JLINK_IsHalted()
T53E8 009:633.953 - 0.821ms returns FALSE
T53E8 009:735.057 JLINK_IsHalted()
T53E8 009:735.735 - 0.689ms returns FALSE
T53E8 009:836.120 JLINK_IsHalted()
T53E8 009:837.289 - 1.192ms returns FALSE
T53E8 009:938.254 JLINK_IsHalted()
T53E8 009:939.579 - 1.336ms returns FALSE
T53E8 010:039.768 JLINK_IsHalted()
T53E8 010:041.178 - 1.434ms returns FALSE
T5038 010:142.586   JLINK_ReadMemEx(0x40013800, 0x0014 Bytes, ..., Flags = 0x02000004)
T5038 010:142.629   CPU_ReadMem(20 bytes @ 0x40013800)
T5038 010:144.023   Data:  1D 00 00 00 00 00 00 00 C0 00 00 00 4C 1D 00 00 ...
T5038 010:144.057 - 1.476ms returns 0x14
T5038 010:144.076   JLINK_ReadMemEx(0x40013814, 0x0004 Bytes, ..., Flags = 0x02000004)
T5038 010:144.104   CPU_ReadMem(4 bytes @ 0x40013814)
T5038 010:145.952   Data:  00 00 00 00
T5038 010:145.987 - 1.915ms returns 0x04
T5038 010:146.018   JLINK_ReadMemEx(0x4001381C, 0x0004 Bytes, ..., Flags = 0x02000004)
T5038 010:146.042   CPU_ReadMem(4 bytes @ 0x4001381C)
T5038 010:146.780   Data:  80 00 60 00
T5038 010:146.807 - 0.794ms returns 0x04
T5038 010:146.827   JLINK_ReadMemEx(0x40013824, 0x0004 Bytes, ..., Flags = 0x02000004)
T5038 010:146.847   CPU_ReadMem(4 bytes @ 0x40013824)
T5038 010:147.547   Data:  00 00 00 00
T5038 010:147.566 - 0.743ms returns 0x04
T5038 010:147.582   JLINK_ReadMemEx(0x40013828, 0x0004 Bytes, ..., Flags = 0x02000004)
T5038 010:147.599   CPU_ReadMem(4 bytes @ 0x40013828)
T5038 010:149.120   Data:  00 00 00 00
T5038 010:149.138 - 1.561ms returns 0x04
T5038 010:149.153   JLINK_ReadMemEx(0x400138C0, 0x0004 Bytes, ..., Flags = 0x02000004)
T5038 010:149.169   CPU_ReadMem(4 bytes @ 0x400138C0)
T5038 010:150.932   Data:  00 00 00 00
T5038 010:150.950 - 1.801ms returns 0x04
T5038 010:150.964   JLINK_ReadMemEx(0x400138D0, 0x0004 Bytes, ..., Flags = 0x02000004)
T5038 010:150.981   CPU_ReadMem(4 bytes @ 0x400138D0)
T5038 010:152.411   Data:  00 04 00 00
T5038 010:152.428 - 1.468ms returns 0x04
T53E8 010:152.804 JLINK_IsHalted()
T53E8 010:153.982 - 1.194ms returns FALSE
T53E8 010:254.929 JLINK_IsHalted()
T53E8 010:256.154 - 1.248ms returns FALSE
T53E8 010:356.439 JLINK_IsHalted()
T53E8 010:357.355 - 0.934ms returns FALSE
T53E8 010:458.565 JLINK_IsHalted()
T53E8 010:459.761 - 1.218ms returns FALSE
T53E8 010:560.229 JLINK_IsHalted()
T53E8 010:561.119 - 0.908ms returns FALSE
T5038 010:662.197   JLINK_ReadMemEx(0x40013800, 0x0014 Bytes, ..., Flags = 0x02000004)
T5038 010:662.239   CPU_ReadMem(20 bytes @ 0x40013800)
